! Freq dB(S21) dB(S22) NF(2)
1000000000.000000	-76.884657	-0.315142	50.007233
1050000000.000000	-75.449934	-0.334187	48.354151
1100000000.000000	-74.103549	-0.352732	46.786116
1150000000.000000	-72.833339	-0.370755	45.291150
1200000000.000000	-71.629702	-0.388244	43.859728
1250000000.000000	-70.485002	-0.405193	42.484175
1300000000.000000	-69.393164	-0.421602	41.158243
1350000000.000000	-68.349392	-0.437475	39.876811
1400000000.000000	-67.349975	-0.452819	38.635664
1450000000.000000	-66.392153	-0.467643	37.432919
1500000000.000000	-65.474027	-0.481958	36.266544
1550000000.000000	-64.594498	-0.495775	35.131946
1600000000.000000	-63.753232	-0.509105	34.027263
1650000000.000000	-62.950639	-0.521958	32.951034
1700000000.000000	-62.187859	-0.534345	31.902151
1750000000.000000	-61.466733	-0.546275	30.879821
1800000000.000000	-60.789777	-0.557755	29.883533
1850000000.000000	-60.160120	-0.568790	28.913031
1900000000.000000	-59.581407	-0.579385	27.968280
1950000000.000000	-59.057667	-0.589542	27.049439
2000000000.000000	-58.593139	-0.599259	26.156828
2050000000.000000	-58.232404	-0.610277	25.304013
2100000000.000000	-57.938758	-0.621096	24.478422
2150000000.000000	-57.715303	-0.631724	23.680572
2200000000.000000	-57.564610	-0.642164	22.910974
2250000000.000000	-57.488705	-0.652418	22.170092
2300000000.000000	-57.489167	-0.662481	21.458295
2350000000.000000	-57.567342	-0.672346	20.775817
2400000000.000000	-57.724677	-0.682001	20.122718
2450000000.000000	-57.963173	-0.691432	19.498861
2500000000.000000	-58.285944	-0.700621	18.903889
2550000000.000000	-58.697921	-0.709550	18.337219
2600000000.000000	-59.206771	-0.718194	17.798051
2650000000.000000	-59.824163	-0.726528	17.285380
2700000000.000000	-60.567674	-0.734523	16.798024
2750000000.000000	-61.463895	-0.742145	16.334652
2800000000.000000	-62.553896	-0.749358	15.893825
2850000000.000000	-63.903786	-0.756118	15.474025
2900000000.000000	-65.627455	-0.762379	15.073690
2950000000.000000	-67.943679	-0.768087	14.691212
3000000000.000000	-71.358110	-0.773182	14.324787
3050000000.000000	-77.605161	-0.781962	13.982769
3100000000.000000	-96.774805	-0.790626	13.117380
3150000000.000000	-75.461596	-0.799156	13.345654
3200000000.000000	-69.601871	-0.807532	13.047902
3250000000.000000	-65.980753	-0.815727	12.757580
3300000000.000000	-63.312732	-0.823712	12.475784
3350000000.000000	-61.174423	-0.831452	12.201895
3400000000.000000	-59.372814	-0.838908	11.935171
3450000000.000000	-57.803452	-0.846035	11.674905
3500000000.000000	-56.403341	-0.852779	11.420464
3550000000.000000	-55.131511	-0.859082	11.171287
3600000000.000000	-53.959790	-0.864875	10.926885
3650000000.000000	-52.867954	-0.870081	10.686836
3700000000.000000	-51.840974	-0.874612	10.450781
3750000000.000000	-50.867361	-0.878368	10.218418
3800000000.000000	-49.938122	-0.881237	9.989495
3850000000.000000	-49.046069	-0.883090	9.763808
3900000000.000000	-48.185355	-0.883781	9.541196
3950000000.000000	-47.351148	-0.883146	9.321533
4000000000.000000	-46.539393	-0.880998	9.104728
4050000000.000000	-45.777895	-0.887384	8.902178
4100000000.000000	-45.034602	-0.893484	8.702456
4150000000.000000	-44.307034	-0.899247	8.505511
4200000000.000000	-43.593031	-0.904616	8.311314
4250000000.000000	-42.890692	-0.909527	8.119851
4300000000.000000	-42.198335	-0.913906	7.931128
4350000000.000000	-41.514455	-0.917671	7.745159
4400000000.000000	-40.837701	-0.920727	7.561971
4450000000.000000	-40.166851	-0.922967	7.381601
4500000000.000000	-39.500798	-0.924271	7.204098
4550000000.000000	-38.838528	-0.924503	7.029512
4600000000.000000	-38.179119	-0.923508	6.857901
4650000000.000000	-37.521727	-0.921113	6.689329
4700000000.000000	-36.865582	-0.917123	6.523858
4750000000.000000	-36.209988	-0.911320	6.361556
4800000000.000000	-35.554320	-0.903461	6.202487
4850000000.000000	-34.898028	-0.893274	6.046722
4900000000.000000	-34.240645	-0.880459	5.894323
4950000000.000000	-33.581792	-0.864690	5.745354
5000000000.000000	-32.921195	-0.845610	5.599866
5050000000.000000	-32.306255	-0.856228	5.465890
5100000000.000000	-31.693691	-0.868812	5.335290
5150000000.000000	-31.083975	-0.883782	5.208087
5200000000.000000	-30.477779	-0.901633	5.084296
5250000000.000000	-29.875995	-0.922938	4.963924
5300000000.000000	-29.279768	-0.948355	4.846983
5350000000.000000	-28.690513	-0.978628	4.733461
5400000000.000000	-28.109936	-1.014580	4.623354
5450000000.000000	-27.540047	-1.057103	4.516643
5500000000.000000	-26.983154	-1.107132	4.413317
5550000000.000000	-26.441849	-1.165608	4.313334
5600000000.000000	-25.918960	-1.233421	4.216676
5650000000.000000	-25.417476	-1.311341	4.123285
5700000000.000000	-24.940448	-1.399928	4.033128
5750000000.000000	-24.490844	-1.499438	3.946152
5800000000.000000	-24.071396	-1.609733	3.862287
5850000000.000000	-23.684421	-1.730204	3.781488
5900000000.000000	-23.331660	-1.859733	3.703666
5950000000.000000	-23.014131	-1.996707	3.628765
6000000000.000000	-22.732043	-2.139088	3.556708
6050000000.000000	-22.541575	-2.364035	3.491985
6100000000.000000	-22.380173	-2.592295	3.429681
6150000000.000000	-22.245307	-2.820350	3.369715
6200000000.000000	-22.134149	-3.044876	3.312022
6250000000.000000	-22.043722	-3.262919	3.256521
6300000000.000000	-21.971013	-3.472037	3.203134
6350000000.000000	-21.913085	-3.670377	3.151794
6400000000.000000	-21.867151	-3.856702	3.102412
6450000000.000000	-21.830627	-4.030366	3.054921
6500000000.000000	-21.801164	-4.191250	3.009251
6550000000.000000	-21.776663	-4.339683	2.965324
6600000000.000000	-21.755269	-4.476340	2.923095
6650000000.000000	-21.735365	-4.602151	2.882478
6700000000.000000	-21.715553	-4.718215	2.843420
6750000000.000000	-21.694633	-4.825720	2.805854
6800000000.000000	-21.671582	-4.925893	2.769743
6850000000.000000	-21.645534	-5.019946	2.735028
6900000000.000000	-21.615755	-5.109052	2.701662
6950000000.000000	-21.581628	-5.194321	2.669613
7000000000.000000	-21.542633	-5.276789	2.638825
7050000000.000000	-21.505823	-5.386286	2.609801
7100000000.000000	-21.464012	-5.493365	2.581884
7150000000.000000	-21.417047	-5.598730	2.555053
7200000000.000000	-21.364808	-5.703033	2.529318
7250000000.000000	-21.307206	-5.806878	2.504678
7300000000.000000	-21.244174	-5.910818	2.481114
7350000000.000000	-21.175671	-6.015355	2.458641
7400000000.000000	-21.101668	-6.120943	2.437256
7450000000.000000	-21.022159	-6.227981	2.416993
7500000000.000000	-20.937148	-6.336816	2.397855
7550000000.000000	-20.846656	-6.447734	2.379871
7600000000.000000	-20.750715	-6.560956	2.363039
7650000000.000000	-20.649374	-6.676626	2.347381
7700000000.000000	-20.542692	-6.794797	2.332939
7750000000.000000	-20.430746	-6.915418	2.319726
7800000000.000000	-20.313626	-7.038307	2.307775
7850000000.000000	-20.191441	-7.163128	2.297074
7900000000.000000	-20.064317	-7.289352	2.287689
7950000000.000000	-19.932402	-7.416225	2.279593
8000000000.000000	-19.795865	-7.542712	2.272837
8050000000.000000	-19.672980	-7.674872	2.267939
8100000000.000000	-19.547460	-7.801927	2.264396
8150000000.000000	-19.419623	-7.921831	2.262218
8200000000.000000	-19.289819	-8.032154	2.261449
8250000000.000000	-19.158433	-8.130080	2.262054
8300000000.000000	-19.025884	-8.212435	2.264028
8350000000.000000	-18.892634	-8.275752	2.267403
8400000000.000000	-18.759183	-8.316390	2.272129
8450000000.000000	-18.626074	-8.330701	2.278203
8500000000.000000	-18.493894	-8.315249	2.285592
8550000000.000000	-18.363275	-8.267069	2.294312
8600000000.000000	-18.234891	-8.183927	2.304285
8650000000.000000	-18.109456	-8.064565	2.315521
8700000000.000000	-17.987724	-7.908872	2.327990
8750000000.000000	-17.870479	-7.717960	2.341632
8800000000.000000	-17.758536	-7.494127	2.356426
8850000000.000000	-17.652723	-7.240715	2.372339
8900000000.000000	-17.553878	-6.961882	2.389320
8950000000.000000	-17.462832	-6.662335	2.407365
9000000000.000000	-17.380400	-6.347047	2.426440
9050000000.000000	-17.322560	-6.043536	2.445863
9100000000.000000	-17.274818	-5.736042	2.466266
9150000000.000000	-17.237646	-5.428437	2.487619
9200000000.000000	-17.211431	-5.124144	2.509850
9250000000.000000	-17.196469	-4.826115	2.532991
9300000000.000000	-17.192956	-4.536818	2.556973
9350000000.000000	-17.200982	-4.258259	2.581788
9400000000.000000	-17.220534	-3.992014	2.607399
9450000000.000000	-17.251491	-3.739261	2.633834
9500000000.000000	-17.293634	-3.500825	2.661014
9550000000.000000	-17.346652	-3.277223	2.688986
9600000000.000000	-17.410145	-3.068703	2.717677
9650000000.000000	-17.483645	-2.875286	2.747119
9700000000.000000	-17.566619	-2.696804	2.777289
9750000000.000000	-17.658487	-2.532937	2.808178
9800000000.000000	-17.758632	-2.383241	2.839794
9850000000.000000	-17.866415	-2.247182	2.872103
9900000000.000000	-17.981183	-2.124156	2.905099
9950000000.000000	-18.102283	-2.013512	2.938810
10000000000.000000	-18.229069	-1.914575	2.973218
10050000000.000000	-18.359976	-1.835629	3.007554
10100000000.000000	-18.494815	-1.766123	3.042575
10150000000.000000	-18.633071	-1.705429	3.078296
10200000000.000000	-18.774258	-1.652943	3.114687
10250000000.000000	-18.917920	-1.608085	3.151749
10300000000.000000	-19.063636	-1.570303	3.189514
10350000000.000000	-19.211016	-1.539077	3.227985
10400000000.000000	-19.359700	-1.513916	3.267118
10450000000.000000	-19.509361	-1.494363	3.306961
10500000000.000000	-19.659700	-1.479989	3.347504
10550000000.000000	-19.810445	-1.470396	3.388765
10600000000.000000	-19.961351	-1.465217	3.430718
10650000000.000000	-20.112198	-1.464110	3.473381
10700000000.000000	-20.262787	-1.466761	3.516745
10750000000.000000	-20.412940	-1.472880	3.560844
10800000000.000000	-20.562500	-1.482200	3.605668
10850000000.000000	-20.711326	-1.494477	3.651236
10900000000.000000	-20.859292	-1.509487	3.697524
10950000000.000000	-21.006289	-1.527022	3.744537
11000000000.000000	-21.152219	-1.546895	3.792310
