! Freq dB(S21) dB(S22) NF(2)
1000000000.000000	-81.101591	-0.315142	50.007233
1050000000.000000	-79.563301	-0.334187	48.354151
1100000000.000000	-78.113913	-0.352732	46.786116
1150000000.000000	-76.741564	-0.370755	45.291150
1200000000.000000	-75.436912	-0.388244	43.859728
1250000000.000000	-74.192544	-0.405193	42.484175
1300000000.000000	-73.002576	-0.421602	41.158243
1350000000.000000	-71.862375	-0.437475	39.876811
1400000000.000000	-70.768363	-0.452819	38.635664
1450000000.000000	-69.717890	-0.467643	37.432919
1500000000.000000	-68.709141	-0.481958	36.266544
1550000000.000000	-67.741083	-0.495775	35.131946
1600000000.000000	-66.813432	-0.509105	34.027263
1650000000.000000	-65.926630	-0.521958	32.951034
1700000000.000000	-65.081835	-0.534345	31.902151
1750000000.000000	-64.280896	-0.546275	30.879821
1800000000.000000	-63.526324	-0.557755	29.883533
1850000000.000000	-62.821236	-0.568790	28.913031
1900000000.000000	-62.169255	-0.579385	27.968280
1950000000.000000	-61.574386	-0.589542	27.049439
2000000000.000000	-61.040833	-0.599259	26.156828
2050000000.000000	-60.613142	-0.610277	25.304013
2100000000.000000	-60.254566	-0.621096	24.478422
2150000000.000000	-59.968165	-0.631724	23.680572
2200000000.000000	-59.756464	-0.642164	22.910974
2250000000.000000	-59.621442	-0.652418	22.170092
2300000000.000000	-59.564627	-0.662481	21.458295
2350000000.000000	-59.587316	-0.672346	20.775817
2400000000.000000	-59.690907	-0.682001	20.122718
2450000000.000000	-59.877349	-0.691432	19.498861
2500000000.000000	-60.149706	-0.700621	18.903889
2550000000.000000	-60.512859	-0.709550	18.337219
2600000000.000000	-60.974425	-0.718194	17.798051
2650000000.000000	-61.546024	-0.726528	17.285380
2700000000.000000	-62.245186	-0.734523	16.798024
2750000000.000000	-63.098454	-0.742145	16.334652
2800000000.000000	-64.146851	-0.749358	15.893825
2850000000.000000	-65.456442	-0.756118	15.474025
2900000000.000000	-67.141073	-0.762379	15.073690
2950000000.000000	-69.419476	-0.768087	14.691212
3000000000.000000	-72.797263	-0.773182	14.324787
3050000000.000000	-79.008805	-0.781962	13.982769
3100000000.000000	-98.144037	-0.790626	13.117380
3150000000.000000	-76.797475	-0.799156	13.345654
3200000000.000000	-70.905418	-0.807532	13.047902
3250000000.000000	-67.252955	-0.815727	12.757580
3300000000.000000	-64.554539	-0.823712	12.475784
3350000000.000000	-62.386754	-0.831452	12.201895
3400000000.000000	-60.556556	-0.838908	11.935171
3450000000.000000	-58.959459	-0.846035	11.674905
3500000000.000000	-57.532439	-0.852779	11.420464
3550000000.000000	-56.234497	-0.859082	11.171287
3600000000.000000	-55.037433	-0.864875	10.926885
3650000000.000000	-53.920996	-0.870081	10.686836
3700000000.000000	-52.870131	-0.874612	10.450781
3750000000.000000	-51.873325	-0.878368	10.218418
3800000000.000000	-50.921559	-0.881237	9.989495
3850000000.000000	-50.007625	-0.883090	9.763808
3900000000.000000	-49.125653	-0.883781	9.541196
3950000000.000000	-48.270788	-0.883146	9.321533
4000000000.000000	-47.438955	-0.880998	9.104728
4050000000.000000	-46.657941	-0.887384	8.902178
4100000000.000000	-45.895673	-0.893484	8.702456
4150000000.000000	-45.149654	-0.899246	8.505511
4200000000.000000	-44.417705	-0.904616	8.311314
4250000000.000000	-43.697910	-0.909527	8.119851
4300000000.000000	-42.988568	-0.913906	7.931128
4350000000.000000	-42.288160	-0.917671	7.745159
4400000000.000000	-41.595321	-0.920727	7.561971
4450000000.000000	-40.908813	-0.922967	7.381601
4500000000.000000	-40.227513	-0.924271	7.204098
4550000000.000000	-39.550398	-0.924503	7.029512
4600000000.000000	-38.876530	-0.923507	6.857901
4650000000.000000	-38.205052	-0.921112	6.689329
4700000000.000000	-37.535185	-0.917122	6.523858
4750000000.000000	-36.866218	-0.911320	6.361556
4800000000.000000	-36.197517	-0.903460	6.202487
4850000000.000000	-35.528522	-0.893273	6.046722
4900000000.000000	-34.858753	-0.880459	5.894323
4950000000.000000	-34.187822	-0.864689	5.745354
5000000000.000000	-33.515445	-0.845609	5.599866
5050000000.000000	-32.889016	-0.856227	5.465890
5100000000.000000	-32.265243	-0.868810	5.335290
5150000000.000000	-31.644590	-0.883780	5.208087
5200000000.000000	-31.027719	-0.901631	5.084296
5250000000.000000	-30.415517	-0.922935	4.963924
5300000000.000000	-29.809120	-0.948352	4.846983
5350000000.000000	-29.209935	-0.978625	4.733461
5400000000.000000	-28.619661	-1.014576	4.623354
5450000000.000000	-28.040300	-1.057098	4.516643
5500000000.000000	-27.474157	-1.107127	4.413317
5550000000.000000	-26.923814	-1.165602	4.313334
5600000000.000000	-26.392093	-1.233415	4.216676
5650000000.000000	-25.881980	-1.311334	4.123285
5700000000.000000	-25.396516	-1.399920	4.033128
5750000000.000000	-24.938666	-1.499430	3.946152
5800000000.000000	-24.511157	-1.609724	3.862287
5850000000.000000	-24.116300	-1.730194	3.781488
5900000000.000000	-23.755829	-1.859722	3.703666
5950000000.000000	-23.430760	-1.996695	3.628765
6000000000.000000	-23.141297	-2.139075	3.556708
6050000000.000000	-22.943613	-2.364022	3.491985
6100000000.000000	-22.775151	-2.592281	3.429681
6150000000.000000	-22.633375	-2.820336	3.369715
6200000000.000000	-22.515455	-3.044861	3.312022
6250000000.000000	-22.418407	-3.262904	3.256521
6300000000.000000	-22.339217	-3.472022	3.203134
6350000000.000000	-22.274944	-3.670362	3.151794
6400000000.000000	-22.222796	-3.856687	3.102412
6450000000.000000	-22.180186	-4.030351	3.054921
6500000000.000000	-22.144763	-4.191235	3.009251
6550000000.000000	-22.114422	-4.339668	2.965324
6600000000.000000	-22.087306	-4.476325	2.923095
6650000000.000000	-22.061796	-4.602137	2.882478
6700000000.000000	-22.036490	-4.718201	2.843420
6750000000.000000	-22.010185	-4.825707	2.805854
6800000000.000000	-21.981856	-4.925880	2.769743
6850000000.000000	-21.950633	-5.019934	2.735028
6900000000.000000	-21.915780	-5.109040	2.701662
6950000000.000000	-21.876678	-5.194310	2.669613
7000000000.000000	-21.832804	-5.276779	2.638825
7050000000.000000	-21.791209	-5.386278	2.609801
7100000000.000000	-21.744704	-5.493358	2.581884
7150000000.000000	-21.693134	-5.598723	2.555053
7200000000.000000	-21.636377	-5.703028	2.529318
7250000000.000000	-21.574341	-5.806874	2.504678
7300000000.000000	-21.506960	-5.910816	2.481114
7350000000.000000	-21.434186	-6.015355	2.458641
7400000000.000000	-21.355993	-6.120945	2.437256
7450000000.000000	-21.272369	-6.227985	2.416993
7500000000.000000	-21.183319	-6.336823	2.397855
7550000000.000000	-21.088860	-6.447744	2.379871
7600000000.000000	-20.989025	-6.560969	2.363039
7650000000.000000	-20.883859	-6.676642	2.347381
7700000000.000000	-20.773421	-6.794817	2.332939
7750000000.000000	-20.657785	-6.915442	2.319726
7800000000.000000	-20.537041	-7.038337	2.307775
7850000000.000000	-20.411294	-7.163162	2.297074
7900000000.000000	-20.280671	-7.289393	2.287689
7950000000.000000	-20.145317	-7.416272	2.279593
8000000000.000000	-20.005401	-7.542766	2.272837
8050000000.000000	-19.879194	-7.674933	2.267939
8100000000.000000	-19.750410	-7.801996	2.264396
8150000000.000000	-19.619364	-7.921909	2.262218
8200000000.000000	-19.486406	-8.032240	2.261449
8250000000.000000	-19.351918	-8.130175	2.262054
8300000000.000000	-19.216319	-8.212538	2.264028
8350000000.000000	-19.080069	-8.275863	2.267403
8400000000.000000	-18.943668	-8.316508	2.272129
8450000000.000000	-18.807658	-8.330824	2.278203
8500000000.000000	-18.672625	-8.315377	2.285592
8550000000.000000	-18.539199	-8.267198	2.294312
8600000000.000000	-18.408053	-8.184055	2.304285
8650000000.000000	-18.279902	-8.064691	2.315521
8700000000.000000	-18.155496	-7.908992	2.327990
8750000000.000000	-18.035622	-7.718072	2.341632
8800000000.000000	-17.921090	-7.494228	2.356426
8850000000.000000	-17.812731	-7.240803	2.372339
8900000000.000000	-17.711379	-6.961956	2.389320
8950000000.000000	-17.617867	-6.662394	2.407365
9000000000.000000	-17.533006	-6.347089	2.426440
9050000000.000000	-17.472778	-6.043564	2.445863
9100000000.000000	-17.422684	-5.736055	2.466266
9150000000.000000	-17.383197	-5.428436	2.487619
9200000000.000000	-17.354703	-5.124131	2.509850
9250000000.000000	-17.337498	-4.826089	2.532991
9300000000.000000	-17.331776	-4.536781	2.556973
9350000000.000000	-17.337628	-4.258214	2.581788
9400000000.000000	-17.355038	-3.991960	2.607399
9450000000.000000	-17.383886	-3.739200	2.633834
9500000000.000000	-17.423953	-3.500759	2.661014
9550000000.000000	-17.474925	-3.277153	2.688986
9600000000.000000	-17.536405	-3.068629	2.717677
9650000000.000000	-17.607920	-2.875209	2.747119
9700000000.000000	-17.688939	-2.696726	2.777289
9750000000.000000	-17.778881	-2.532858	2.808178
9800000000.000000	-17.877129	-2.383162	2.839794
9850000000.000000	-17.983041	-2.247103	2.872103
9900000000.000000	-18.095967	-2.124078	2.905099
9950000000.000000	-18.215251	-2.013436	2.938810
10000000000.000000	-18.340247	-1.914500	2.973218
10050000000.000000	-18.469389	-1.835556	3.007554
10100000000.000000	-18.602489	-1.766052	3.042575
10150000000.000000	-18.739029	-1.705361	3.078296
10200000000.000000	-18.878525	-1.652878	3.114687
10250000000.000000	-19.020519	-1.608022	3.151749
10300000000.000000	-19.164591	-1.570243	3.189514
10350000000.000000	-19.310349	-1.539020	3.227985
10400000000.000000	-19.457434	-1.513862	3.267118
10450000000.000000	-19.605517	-1.494312	3.306961
10500000000.000000	-19.754299	-1.479940	3.347504
10550000000.000000	-19.903509	-1.470351	3.388765
10600000000.000000	-20.052901	-1.465174	3.430718
10650000000.000000	-20.202254	-1.464070	3.473381
10700000000.000000	-20.351369	-1.466723	3.516745
10750000000.000000	-20.500068	-1.472845	3.560844
10800000000.000000	-20.648192	-1.482168	3.605668
10850000000.000000	-20.795601	-1.494447	3.651236
10900000000.000000	-20.942170	-1.509459	3.697524
10950000000.000000	-21.087787	-1.526996	3.744537
11000000000.000000	-21.232355	-1.546872	3.792310
