! Freq dB(S21) dB(S22) NF(2)
1000000000.000000	-102.831362	-0.315142	50.007233
1050000000.000000	-101.230670	-0.334187	48.354151
1100000000.000000	-99.716792	-0.352732	46.786116
1150000000.000000	-98.277970	-0.370755	45.291150
1200000000.000000	-96.904967	-0.388244	43.859728
1250000000.000000	-95.590475	-0.405193	42.484175
1300000000.000000	-94.328713	-0.421602	41.158243
1350000000.000000	-93.115148	-0.437475	39.876811
1400000000.000000	-91.946301	-0.452819	38.635664
1450000000.000000	-90.819618	-0.467643	37.432919
1500000000.000000	-89.733380	-0.481958	36.266544
1550000000.000000	-88.686645	-0.495775	35.131946
1600000000.000000	-87.679217	-0.509105	34.027263
1650000000.000000	-86.711627	-0.521958	32.951034
1700000000.000000	-85.785113	-0.534345	31.902151
1750000000.000000	-84.901606	-0.546275	30.879821
1800000000.000000	-84.063695	-0.557755	29.883533
1850000000.000000	-83.274569	-0.568790	28.913031
1900000000.000000	-82.537924	-0.579385	27.968280
1950000000.000000	-81.857832	-0.589542	27.049439
2000000000.000000	-81.238561	-0.599259	26.156828
2050000000.000000	-80.724721	-0.610277	25.304013
2100000000.000000	-80.279624	-0.621096	24.478422
2150000000.000000	-79.906385	-0.631724	23.680572
2200000000.000000	-79.607583	-0.642164	22.910974
2250000000.000000	-79.385247	-0.652418	22.170092
2300000000.000000	-79.240954	-0.662481	21.458295
2350000000.000000	-79.176045	-0.672346	20.775817
2400000000.000000	-79.191962	-0.682001	20.122718
2450000000.000000	-79.290693	-0.691432	19.498861
2500000000.000000	-79.475341	-0.700621	18.903889
2550000000.000000	-79.750822	-0.709550	18.337219
2600000000.000000	-80.124788	-0.718194	17.798051
2650000000.000000	-80.608890	-0.726528	17.285380
2700000000.000000	-81.220688	-0.734523	16.798024
2750000000.000000	-81.986750	-0.742145	16.334652
2800000000.000000	-82.948129	-0.749358	15.893825
2850000000.000000	-84.170912	-0.756118	15.474025
2900000000.000000	-85.768968	-0.762379	15.073690
2950000000.000000	-87.961049	-0.768087	14.691212
3000000000.000000	-91.252789	-0.773182	14.324787
3050000000.000000	-97.378574	-0.781962	13.982769
3100000000.000000	-116.428359	-0.790626	13.117380
3150000000.000000	-94.996673	-0.799156	13.345654
3200000000.000000	-89.019832	-0.807532	13.047902
3250000000.000000	-85.282935	-0.815727	12.757580
3300000000.000000	-82.500450	-0.823712	12.475784
3350000000.000000	-80.248972	-0.831452	12.201895
3400000000.000000	-78.335466	-0.838908	11.935171
3450000000.000000	-76.655456	-0.846035	11.674905
3500000000.000000	-75.145927	-0.852779	11.420464
3550000000.000000	-73.765886	-0.859082	11.171287
3600000000.000000	-72.487142	-0.864875	10.926885
3650000000.000000	-71.289449	-0.870081	10.686836
3700000000.000000	-70.157758	-0.874612	10.450781
3750000000.000000	-69.080561	-0.878368	10.218418
3800000000.000000	-68.048844	-0.881237	9.989495
3850000000.000000	-67.055401	-0.883090	9.763808
3900000000.000000	-66.094367	-0.883781	9.541196
3950000000.000000	-65.160890	-0.883146	9.321533
4000000000.000000	-64.250897	-0.880998	9.104728
4050000000.000000	-63.392176	-0.887384	8.902178
4100000000.000000	-62.552656	-0.893484	8.702456
4150000000.000000	-61.729842	-0.899247	8.505511
4200000000.000000	-60.921555	-0.904616	8.311314
4250000000.000000	-60.125880	-0.909527	8.119851
4300000000.000000	-59.341116	-0.913906	7.931128
4350000000.000000	-58.565745	-0.917671	7.745159
4400000000.000000	-57.798399	-0.920727	7.561971
4450000000.000000	-57.037842	-0.922967	7.381601
4500000000.000000	-56.282951	-0.924271	7.204098
4550000000.000000	-55.532698	-0.924503	7.029512
4600000000.000000	-54.786146	-0.923507	6.857901
4650000000.000000	-54.042439	-0.921112	6.689329
4700000000.000000	-53.300791	-0.917122	6.523858
4750000000.000000	-52.560495	-0.911320	6.361556
4800000000.000000	-51.820912	-0.903460	6.202487
4850000000.000000	-51.081479	-0.893273	6.046722
4900000000.000000	-50.341716	-0.880458	5.894323
4950000000.000000	-49.601233	-0.864689	5.745354
5000000000.000000	-48.859743	-0.845608	5.599866
5050000000.000000	-48.164637	-0.856226	5.465890
5100000000.000000	-47.472620	-0.868808	5.335290
5150000000.000000	-46.784155	-0.883778	5.208087
5200000000.000000	-46.099900	-0.901627	5.084296
5250000000.000000	-45.420741	-0.922931	4.963924
5300000000.000000	-44.747809	-0.948347	4.846983
5350000000.000000	-44.082509	-0.978618	4.733461
5400000000.000000	-43.426537	-1.014567	4.623354
5450000000.000000	-42.781894	-1.057088	4.516643
5500000000.000000	-42.150878	-1.107114	4.413317
5550000000.000000	-41.536071	-1.165586	4.313334
5600000000.000000	-40.940291	-1.233395	4.216676
5650000000.000000	-40.366520	-1.311310	4.123285
5700000000.000000	-39.817798	-1.399891	4.033128
5750000000.000000	-39.297086	-1.499395	3.946152
5800000000.000000	-38.807106	-1.609683	3.862287
5850000000.000000	-38.350168	-1.730146	3.781488
5900000000.000000	-37.928004	-1.859667	3.703666
5950000000.000000	-37.541624	-1.996632	3.628765
6000000000.000000	-37.191230	-2.139005	3.556708
6050000000.000000	-36.932993	-2.363944	3.491985
6100000000.000000	-36.704353	-2.592195	3.429681
6150000000.000000	-36.502769	-2.820242	3.369715
6200000000.000000	-36.325410	-3.044759	3.312022
6250000000.000000	-36.169288	-3.262794	3.256521
6300000000.000000	-36.031386	-3.471905	3.203134
6350000000.000000	-35.908760	-3.670237	3.151794
6400000000.000000	-35.798614	-3.856556	3.102412
6450000000.000000	-35.698360	-4.030212	3.054921
6500000000.000000	-35.605642	-4.191090	3.009251
6550000000.000000	-35.518353	-4.339517	2.965324
6600000000.000000	-35.434634	-4.476168	2.923095
6650000000.000000	-35.352860	-4.601974	2.882478
6700000000.000000	-35.271628	-4.718031	2.843420
6750000000.000000	-35.189732	-4.825532	2.805854
6800000000.000000	-35.106144	-4.925698	2.769743
6850000000.000000	-35.019990	-5.019746	2.735028
6900000000.000000	-34.930533	-5.108847	2.701662
6950000000.000000	-34.837149	-5.194110	2.669613
7000000000.000000	-34.739314	-5.276573	2.638825
7050000000.000000	-34.644074	-5.386065	2.609801
7100000000.000000	-34.544239	-5.493138	2.581884
7150000000.000000	-34.439651	-5.598497	2.555053
7200000000.000000	-34.330184	-5.702795	2.529318
7250000000.000000	-34.215745	-5.806635	2.504678
7300000000.000000	-34.096263	-5.910570	2.481114
7350000000.000000	-33.971689	-6.015102	2.458641
7400000000.000000	-33.841994	-6.120685	2.437256
7450000000.000000	-33.707164	-6.227720	2.416993
7500000000.000000	-33.567199	-6.336551	2.397855
7550000000.000000	-33.422116	-6.447467	2.379871
7600000000.000000	-33.271944	-6.560688	2.363039
7650000000.000000	-33.116726	-6.676357	2.347381
7700000000.000000	-32.956518	-6.794530	2.332939
7750000000.000000	-32.791391	-6.915154	2.319726
7800000000.000000	-32.621432	-7.038049	2.307775
7850000000.000000	-32.446746	-7.162879	2.297074
7900000000.000000	-32.267456	-7.289117	2.287689
7950000000.000000	-32.083704	-7.416007	2.279593
8000000000.000000	-31.895657	-7.542518	2.272837
8050000000.000000	-31.721583	-7.674708	2.267939
8100000000.000000	-31.545193	-7.801801	2.264396
8150000000.000000	-31.366801	-7.921750	2.262218
8200000000.000000	-31.186754	-8.032127	2.261449
8250000000.000000	-31.005432	-8.130117	2.262054
8300000000.000000	-30.823252	-8.212544	2.264028
8350000000.000000	-30.640671	-8.275944	2.267403
8400000000.000000	-30.458186	-8.316674	2.272129
8450000000.000000	-30.276337	-8.331083	2.278203
8500000000.000000	-30.095709	-8.315734	2.285592
8550000000.000000	-29.916928	-8.267657	2.294312
8600000000.000000	-29.740667	-8.184617	2.304285
8650000000.000000	-29.567635	-8.065351	2.315521
8700000000.000000	-29.398585	-7.909744	2.327990
8750000000.000000	-29.234298	-7.718904	2.341632
8800000000.000000	-29.075584	-7.495125	2.356426
8850000000.000000	-28.923270	-7.241749	2.372339
8900000000.000000	-28.778191	-6.962933	2.389320
8950000000.000000	-28.641176	-6.663384	2.407365
9000000000.000000	-28.513036	-6.348075	2.426440
9050000000.000000	-28.409754	-6.044527	2.445863
9100000000.000000	-28.316827	-5.736984	2.466266
9150000000.000000	-28.234725	-5.429318	2.487619
9200000000.000000	-28.163836	-5.124958	2.509850
9250000000.000000	-28.104452	-4.826855	2.532991
9300000000.000000	-28.056766	-4.537481	2.556973
9350000000.000000	-28.020868	-4.258843	2.581788
9400000000.000000	-27.996742	-3.992518	2.607399
9450000000.000000	-27.984266	-3.739685	2.633834
9500000000.000000	-27.983218	-3.501173	2.661014
9550000000.000000	-27.993285	-3.277496	2.688986
9600000000.000000	-28.014066	-3.068905	2.717677
9650000000.000000	-28.045090	-2.875420	2.747119
9700000000.000000	-28.085822	-2.696876	2.777289
9750000000.000000	-28.135681	-2.532950	2.808178
9800000000.000000	-28.194046	-2.383200	2.839794
9850000000.000000	-28.260277	-2.247092	2.872103
9900000000.000000	-28.333719	-2.124021	2.905099
9950000000.000000	-28.413716	-2.013337	2.938810
10000000000.000000	-28.499621	-1.914364	2.973218
10050000000.000000	-28.589867	-1.835389	3.007554
10100000000.000000	-28.684262	-1.765857	3.042575
10150000000.000000	-28.782288	-1.705140	3.078296
10200000000.000000	-28.883456	-1.652635	3.114687
10250000000.000000	-28.987311	-1.607760	3.151749
10300000000.000000	-29.093427	-1.569964	3.189514
10350000000.000000	-29.201413	-1.538727	3.227985
10400000000.000000	-29.310908	-1.513557	3.267118
10450000000.000000	-29.421581	-1.493996	3.306961
10500000000.000000	-29.533132	-1.479617	3.347504
10550000000.000000	-29.645288	-1.470021	3.388765
10600000000.000000	-29.757802	-1.464839	3.430718
10650000000.000000	-29.870451	-1.463731	3.473381
10700000000.000000	-29.983035	-1.466382	3.516745
10750000000.000000	-30.095374	-1.472503	3.560844
10800000000.000000	-30.207309	-1.481826	3.605668
10850000000.000000	-30.318698	-1.494106	3.651236
10900000000.000000	-30.429413	-1.509119	3.697524
10950000000.000000	-30.539344	-1.526660	3.744537
11000000000.000000	-30.648390	-1.546538	3.792310
