! Freq dB(S21) dB(S22) NF(2)
1000000000.000000	-75.138431	-0.315142	50.007233
1050000000.000000	-73.785076	-0.334187	48.354151
1100000000.000000	-72.516279	-0.352732	46.786116
1150000000.000000	-71.319913	-0.370755	45.291150
1200000000.000000	-70.186446	-0.388244	43.859728
1250000000.000000	-69.108343	-0.405193	42.484175
1300000000.000000	-68.079646	-0.421602	41.158243
1350000000.000000	-67.095694	-0.437475	39.876811
1400000000.000000	-66.152918	-0.452819	38.635664
1450000000.000000	-65.248707	-0.467643	37.432919
1500000000.000000	-64.381309	-0.481958	36.266544
1550000000.000000	-63.549775	-0.495775	35.131946
1600000000.000000	-62.753917	-0.509105	34.027263
1650000000.000000	-61.994290	-0.521958	32.951034
1700000000.000000	-61.272167	-0.534345	31.902151
1750000000.000000	-60.589526	-0.546275	30.879821
1800000000.000000	-59.949007	-0.557755	29.883533
1850000000.000000	-59.353859	-0.568790	28.913031
1900000000.000000	-58.807843	-0.579385	27.968280
1950000000.000000	-58.315095	-0.589542	27.049439
2000000000.000000	-57.879954	-0.599259	26.156828
2050000000.000000	-57.547100	-0.610277	25.304013
2100000000.000000	-57.279917	-0.621096	24.478422
2150000000.000000	-57.081591	-0.631724	23.680572
2200000000.000000	-56.954773	-0.642164	22.910974
2250000000.000000	-56.901565	-0.652418	22.170092
2300000000.000000	-56.923613	-0.662481	21.458295
2350000000.000000	-57.022329	-0.672346	20.775817
2400000000.000000	-57.199223	-0.682001	20.122718
2450000000.000000	-57.456350	-0.691432	19.498861
2500000000.000000	-57.796878	-0.700621	18.903889
2550000000.000000	-58.225791	-0.709550	18.337219
2600000000.000000	-58.750799	-0.718194	17.798051
2650000000.000000	-59.383617	-0.726528	17.285380
2700000000.000000	-60.141863	-0.734523	16.798024
2750000000.000000	-61.052164	-0.742145	16.334652
2800000000.000000	-62.155629	-0.749358	15.893825
2850000000.000000	-63.518399	-0.756118	15.474025
2900000000.000000	-65.254396	-0.762379	15.073690
2950000000.000000	-67.582424	-0.768087	14.691212
3000000000.000000	-71.008166	-0.773182	14.324787
3050000000.000000	-77.266058	-0.781962	13.982769
3100000000.000000	-96.446098	-0.790626	13.117380
3150000000.000000	-75.142865	-0.799156	13.345654
3200000000.000000	-69.292716	-0.807532	13.047902
3250000000.000000	-65.680793	-0.815727	12.757580
3300000000.000000	-63.021607	-0.823712	12.475784
3350000000.000000	-60.891790	-0.831452	12.201895
3400000000.000000	-59.098347	-0.838908	11.935171
3450000000.000000	-57.536841	-0.846035	11.674905
3500000000.000000	-56.144291	-0.852779	11.420464
3550000000.000000	-54.879741	-0.859082	11.171287
3600000000.000000	-53.715033	-0.864875	10.926885
3650000000.000000	-52.629954	-0.870081	10.686836
3700000000.000000	-51.609488	-0.874612	10.450781
3750000000.000000	-50.642157	-0.878368	10.218418
3800000000.000000	-49.718978	-0.881237	9.989495
3850000000.000000	-48.832775	-0.883090	9.763808
3900000000.000000	-47.977709	-0.883781	9.541196
3950000000.000000	-47.148956	-0.883146	9.321533
4000000000.000000	-46.342470	-0.880998	9.104728
4050000000.000000	-45.586065	-0.887384	8.902178
4100000000.000000	-44.847695	-0.893484	8.702456
4150000000.000000	-44.124890	-0.899247	8.505511
4200000000.000000	-43.415494	-0.904616	8.311314
4250000000.000000	-42.717615	-0.909527	8.119851
4300000000.000000	-42.029574	-0.913906	7.931128
4350000000.000000	-41.349874	-0.917671	7.745159
4400000000.000000	-40.677170	-0.920727	7.561971
4450000000.000000	-40.010245	-0.922967	7.381601
4500000000.000000	-39.347994	-0.924272	7.204098
4550000000.000000	-38.689413	-0.924503	7.029512
4600000000.000000	-38.033580	-0.923508	6.857901
4650000000.000000	-37.379658	-0.921113	6.689329
4700000000.000000	-36.726880	-0.917123	6.523858
4750000000.000000	-36.074555	-0.911320	6.361556
4800000000.000000	-35.422060	-0.903461	6.202487
4850000000.000000	-34.768851	-0.893274	6.046722
4900000000.000000	-34.114462	-0.880460	5.894323
4950000000.000000	-33.458519	-0.864691	5.745354
5000000000.000000	-32.800749	-0.845611	5.599866
5050000000.000000	-32.188559	-0.856229	5.465890
5100000000.000000	-31.578668	-0.868812	5.335290
5150000000.000000	-30.971553	-0.883783	5.208087
5200000000.000000	-30.367886	-0.901633	5.084296
5250000000.000000	-29.768564	-0.922939	4.963924
5300000000.000000	-29.174734	-0.948356	4.846983
5350000000.000000	-28.587812	-0.978629	4.733461
5400000000.000000	-28.009507	-1.014581	4.623354
5450000000.000000	-27.441830	-1.057104	4.516643
5500000000.000000	-26.887093	-1.107134	4.413317
5550000000.000000	-26.347889	-1.165610	4.313334
5600000000.000000	-25.827047	-1.233423	4.216676
5650000000.000000	-25.327560	-1.311344	4.123285
5700000000.000000	-24.852477	-1.399931	4.033128
5750000000.000000	-24.404771	-1.499441	3.946152
5800000000.000000	-23.987174	-1.609736	3.862287
5850000000.000000	-23.602006	-1.730207	3.781488
5900000000.000000	-23.251007	-1.859736	3.703666
5950000000.000000	-22.935198	-1.996710	3.628765
6000000000.000000	-22.654788	-2.139092	3.556708
6050000000.000000	-22.465960	-2.364039	3.491985
6100000000.000000	-22.306159	-2.592299	3.429681
6150000000.000000	-22.172856	-2.820354	3.369715
6200000000.000000	-22.063225	-3.044880	3.312022
6250000000.000000	-21.974290	-3.262923	3.256521
6300000000.000000	-21.903039	-3.472040	3.203134
6350000000.000000	-21.846536	-3.670381	3.151794
6400000000.000000	-21.801994	-3.856706	3.102412
6450000000.000000	-21.766832	-4.030369	3.054921
6500000000.000000	-21.738702	-4.191253	3.009251
6550000000.000000	-21.715503	-4.339686	2.965324
6600000000.000000	-21.695383	-4.476343	2.923095
6650000000.000000	-21.676725	-4.602154	2.882478
6700000000.000000	-21.658133	-4.718217	2.843420
6750000000.000000	-21.638406	-4.825723	2.805854
6800000000.000000	-21.616524	-4.925895	2.769743
6850000000.000000	-21.591619	-5.019948	2.735028
6900000000.000000	-21.562959	-5.109053	2.701662
6950000000.000000	-21.529928	-5.194322	2.669613
7000000000.000000	-21.492007	-5.276790	2.638825
7050000000.000000	-21.456249	-5.386286	2.609801
7100000000.000000	-21.415468	-5.493365	2.581884
7150000000.000000	-21.369512	-5.598729	2.555053
7200000000.000000	-21.318262	-5.703031	2.529318
7250000000.000000	-21.261629	-5.806876	2.504678
7300000000.000000	-21.199548	-5.910815	2.481114
7350000000.000000	-21.131975	-6.015352	2.458641
7400000000.000000	-21.058886	-6.120939	2.437256
7450000000.000000	-20.980272	-6.227976	2.416993
7500000000.000000	-20.896139	-6.336810	2.397855
7550000000.000000	-20.806507	-6.447727	2.379871
7600000000.000000	-20.711412	-6.560948	2.363039
7650000000.000000	-20.610899	-6.676616	2.347381
7700000000.000000	-20.505030	-6.794786	2.332939
7750000000.000000	-20.393882	-6.915405	2.319726
7800000000.000000	-20.277545	-7.038293	2.307775
7850000000.000000	-20.156128	-7.163111	2.297074
7900000000.000000	-20.029759	-7.289334	2.287689
7950000000.000000	-19.898584	-7.416204	2.279593
8000000000.000000	-19.762774	-7.542689	2.272837
8050000000.000000	-19.640602	-7.674846	2.267939
8100000000.000000	-19.515783	-7.801898	2.264396
8150000000.000000	-19.388635	-7.921800	2.262218
8200000000.000000	-19.259508	-8.032121	2.261449
8250000000.000000	-19.128786	-8.130044	2.262054
8300000000.000000	-18.996890	-8.212396	2.264028
8350000000.000000	-18.864281	-8.275711	2.267403
8400000000.000000	-18.731460	-8.316348	2.272129
8450000000.000000	-18.598970	-8.330657	2.278203
8500000000.000000	-18.467400	-8.315205	2.285592
8550000000.000000	-18.337379	-8.267024	2.294312
8600000000.000000	-18.209583	-8.183884	2.304285
8650000000.000000	-18.084726	-8.064524	2.315521
8700000000.000000	-17.963562	-7.908835	2.327990
8750000000.000000	-17.846876	-7.717927	2.341632
8800000000.000000	-17.735482	-7.494098	2.356426
8850000000.000000	-17.630210	-7.240691	2.372339
8900000000.000000	-17.531895	-6.961864	2.389320
8950000000.000000	-17.441372	-6.662323	2.407365
9000000000.000000	-17.359453	-6.347040	2.426440
9050000000.000000	-17.302119	-6.043534	2.445863
9100000000.000000	-17.254874	-5.736046	2.466266
9150000000.000000	-17.218189	-5.428445	2.487619
9200000000.000000	-17.192455	-5.124157	2.509850
9250000000.000000	-17.177966	-4.826131	2.532991
9300000000.000000	-17.174917	-4.536837	2.556973
9350000000.000000	-17.183401	-4.258282	2.581788
9400000000.000000	-17.203403	-3.992039	2.607399
9450000000.000000	-17.234803	-3.739287	2.633834
9500000000.000000	-17.277382	-3.500853	2.661014
9550000000.000000	-17.330828	-3.277253	2.688986
9600000000.000000	-17.394744	-3.068733	2.717677
9650000000.000000	-17.468659	-2.875317	2.747119
9700000000.000000	-17.552042	-2.696835	2.777289
9750000000.000000	-17.644312	-2.532967	2.808178
9800000000.000000	-17.744854	-2.383271	2.839794
9850000000.000000	-17.853027	-2.247212	2.872103
9900000000.000000	-17.968180	-2.124184	2.905099
9950000000.000000	-18.089659	-2.013540	2.938810
10000000000.000000	-18.216818	-1.914602	2.973218
10050000000.000000	-18.348092	-1.835655	3.007554
10100000000.000000	-18.483294	-1.766148	3.042575
10150000000.000000	-18.621908	-1.705453	3.078296
10200000000.000000	-18.763446	-1.652966	3.114687
10250000000.000000	-18.907455	-1.608106	3.151749
10300000000.000000	-19.053513	-1.570323	3.189514
10350000000.000000	-19.201230	-1.539096	3.227985
10400000000.000000	-19.350247	-1.513934	3.267118
10450000000.000000	-19.500235	-1.494380	3.306961
10500000000.000000	-19.650897	-1.480005	3.347504
10550000000.000000	-19.801961	-1.470411	3.388765
10600000000.000000	-19.953181	-1.465231	3.430718
10650000000.000000	-20.104338	-1.464123	3.473381
10700000000.000000	-20.255232	-1.466773	3.516745
10750000000.000000	-20.405687	-1.472891	3.560844
10800000000.000000	-20.555544	-1.482210	3.605668
10850000000.000000	-20.704663	-1.494486	3.651236
10900000000.000000	-20.852918	-1.509495	3.697524
10950000000.000000	-21.000200	-1.527029	3.744537
11000000000.000000	-21.146412	-1.546902	3.792310
