! Freq dB(S21) dB(S22) NF(2)
1000000000.000000	-64.788677	-0.315142	50.007233
1050000000.000000	-62.160111	-0.334187	48.354150
1100000000.000000	-59.704659	-0.352732	46.786116
1150000000.000000	-57.394350	-0.370755	45.291149
1200000000.000000	-55.207456	-0.388244	43.859727
1250000000.000000	-53.126803	-0.405193	42.484174
1300000000.000000	-51.138656	-0.421602	41.158242
1350000000.000000	-49.231947	-0.437475	39.876810
1400000000.000000	-47.397737	-0.452819	38.635663
1450000000.000000	-45.628840	-0.467643	37.432918
1500000000.000000	-43.919550	-0.481959	36.266543
1550000000.000000	-42.265453	-0.495776	35.131945
1600000000.000000	-40.663286	-0.509106	34.027262
1650000000.000000	-39.110837	-0.521960	32.951033
1700000000.000000	-37.606870	-0.534349	31.902149
1750000000.000000	-36.151047	-0.546280	30.879819
1800000000.000000	-34.743852	-0.557761	29.883531
1850000000.000000	-33.386488	-0.568800	28.913029
1900000000.000000	-32.080736	-0.579399	27.968277
1950000000.000000	-30.828768	-0.589560	27.049436
2000000000.000000	-29.632911	-0.599283	26.156825
2050000000.000000	-28.537660	-0.610307	25.304009
2100000000.000000	-27.502246	-0.621132	24.478418
2150000000.000000	-26.527182	-0.631766	23.680567
2200000000.000000	-25.612064	-0.642212	22.910968
2250000000.000000	-24.755463	-0.652469	22.170085
2300000000.000000	-23.954930	-0.662532	21.458288
2350000000.000000	-23.207097	-0.672392	20.775808
2400000000.000000	-22.507859	-0.682038	20.122709
2450000000.000000	-21.852609	-0.691455	19.498851
2500000000.000000	-21.236477	-0.700624	18.903877
2550000000.000000	-20.654556	-0.709526	18.337206
2600000000.000000	-20.102090	-0.718137	17.798037
2650000000.000000	-19.574607	-0.726432	17.285366
2700000000.000000	-19.068012	-0.734380	16.798010
2750000000.000000	-18.578626	-0.741949	16.334642
2800000000.000000	-18.103200	-0.749100	15.893825
2850000000.000000	-17.638903	-0.755792	15.474048
2900000000.000000	-17.183291	-0.761976	15.073768
2950000000.000000	-16.734269	-0.767598	14.691442
3000000000.000000	-16.290052	-0.772598	14.325556
3050000000.000000	-15.876948	-0.781273	13.987357
3100000000.000000	-15.466601	-0.789822	13.662818
3150000000.000000	-15.057993	-0.798225	13.350623
3200000000.000000	-14.650253	-0.806461	13.049552
3250000000.000000	-14.242631	-0.814502	12.758480
3300000000.000000	-13.834475	-0.822317	12.476386
3350000000.000000	-13.425215	-0.829869	12.202345
3400000000.000000	-13.014346	-0.837118	11.935530
3450000000.000000	-12.601417	-0.844014	11.675205
3500000000.000000	-12.186018	-0.850503	11.420723
3550000000.000000	-11.767773	-0.856523	11.171515
3600000000.000000	-11.346332	-0.862002	10.927088
3650000000.000000	-10.921363	-0.866859	10.687021
3700000000.000000	-10.492549	-0.871001	10.450950
3750000000.000000	-10.059580	-0.874324	10.218574
3800000000.000000	-9.622152	-0.876709	9.989640
3850000000.000000	-9.179963	-0.878021	9.763944
3900000000.000000	-8.732708	-0.878108	9.541323
3950000000.000000	-8.280079	-0.876795	9.321653
4000000000.000000	-7.821760	-0.873887	9.104841
4050000000.000000	-7.390169	-0.879510	8.902285
4100000000.000000	-6.954466	-0.884767	8.702558
4150000000.000000	-6.514414	-0.889599	8.505608
4200000000.000000	-6.069770	-0.893941	8.311406
4250000000.000000	-5.620286	-0.897715	8.119938
4300000000.000000	-5.165710	-0.900838	7.931211
4350000000.000000	-4.705786	-0.903212	7.745238
4400000000.000000	-4.240253	-0.904729	7.562046
4450000000.000000	-3.768845	-0.905266	7.381673
4500000000.000000	-3.291297	-0.904683	7.204166
4550000000.000000	-2.807339	-0.902825	7.029576
4600000000.000000	-2.316705	-0.899514	6.857962
4650000000.000000	-1.819134	-0.894553	6.689387
4700000000.000000	-1.314373	-0.887721	6.523913
4750000000.000000	-0.802183	-0.878769	6.361608
4800000000.000000	-0.282348	-0.867423	6.202536
4850000000.000000	0.245318	-0.853379	6.046768
4900000000.000000	0.780959	-0.836303	5.894366
4950000000.000000	1.324660	-0.815831	5.745394
5000000000.000000	1.876429	-0.791575	5.599904
5050000000.000000	2.386351	-0.797790	5.465926
5100000000.000000	2.899353	-0.805842	5.335323
5150000000.000000	3.414666	-0.816229	5.208118
5200000000.000000	3.931305	-0.829555	5.084326
5250000000.000000	4.448038	-0.846538	4.963951
5300000000.000000	4.963343	-0.868031	4.847009
5350000000.000000	5.475376	-0.895024	4.733486
5400000000.000000	5.981937	-0.928651	4.623377
5450000000.000000	6.480452	-0.970182	4.516665
5500000000.000000	6.967965	-1.020997	4.413337
5550000000.000000	7.441162	-1.082539	4.313353
5600000000.000000	7.896430	-1.156245	4.216694
5650000000.000000	8.329955	-1.243442	4.123302
5700000000.000000	8.737868	-1.345218	4.033144
5750000000.000000	9.116447	-1.462271	3.946168
5800000000.000000	9.462336	-1.594760	3.862302
5850000000.000000	9.772791	-1.742177	3.781502
5900000000.000000	10.045903	-1.903273	3.703681
5950000000.000000	10.280770	-2.076066	3.628779
6000000000.000000	10.477584	-2.257942	3.556722
6050000000.000000	10.577927	-2.528322	3.491999
6100000000.000000	10.648861	-2.803585	3.429695
6150000000.000000	10.693706	-3.079428	3.369729
6200000000.000000	10.716031	-3.351874	3.312037
6250000000.000000	10.719474	-3.617498	3.256536
6300000000.000000	10.707593	-3.873581	3.203150
6350000000.000000	10.683752	-4.118188	3.151810
6400000000.000000	10.651050	-4.350177	3.102429
6450000000.000000	10.612274	-4.569139	3.054939
6500000000.000000	10.569891	-4.775310	3.009269
6550000000.000000	10.526051	-4.969448	2.965343
6600000000.000000	10.482602	-5.152716	2.923115
6650000000.000000	10.441120	-5.326565	2.882499
6700000000.000000	10.402938	-5.492636	2.843441
6750000000.000000	10.369177	-5.652679	2.805877
6800000000.000000	10.340774	-5.808495	2.769766
6850000000.000000	10.318513	-5.961896	2.735052
6900000000.000000	10.303046	-6.114680	2.701687
6950000000.000000	10.294919	-6.268620	2.669639
7000000000.000000	10.294587	-6.425467	2.638852
7050000000.000000	10.291619	-6.613210	2.609828
7100000000.000000	10.295818	-6.805026	2.581912
7150000000.000000	10.307258	-7.002372	2.555082
7200000000.000000	10.325983	-7.206712	2.529348
7250000000.000000	10.352002	-7.419517	2.504709
7300000000.000000	10.385298	-7.642260	2.481145
7350000000.000000	10.425822	-7.876404	2.458672
7400000000.000000	10.473494	-8.123374	2.437288
7450000000.000000	10.528199	-8.384508	2.417025
7500000000.000000	10.589785	-8.660977	2.397888
7550000000.000000	10.658054	-8.953645	2.379905
7600000000.000000	10.732756	-9.262864	2.363073
7650000000.000000	10.813580	-9.588143	2.347415
7700000000.000000	10.900142	-9.927663	2.332973
7750000000.000000	10.991973	-10.277562	2.319760
7800000000.000000	11.088504	-10.630952	2.307810
7850000000.000000	11.189047	-10.976643	2.297109
7900000000.000000	11.292780	-11.297741	2.287724
7950000000.000000	11.398723	-11.570574	2.279628
8000000000.000000	11.505717	-11.764889	2.272872
8050000000.000000	11.583041	-11.836887	2.267973
8100000000.000000	11.656199	-11.775108	2.264430
8150000000.000000	11.723494	-11.565769	2.262253
8200000000.000000	11.783065	-11.210701	2.261484
8250000000.000000	11.832902	-10.727350	2.262088
8300000000.000000	11.870868	-10.143999	2.264062
8350000000.000000	11.894745	-9.492984	2.267437
8400000000.000000	11.902283	-8.804980	2.272163
8450000000.000000	11.891270	-8.105786	2.278237
8500000000.000000	11.859610	-7.415380	2.285625
8550000000.000000	11.805412	-6.748311	2.294346
8600000000.000000	11.727075	-6.114637	2.304318
8650000000.000000	11.623370	-5.520916	2.315554
8700000000.000000	11.493503	-4.971050	2.328023
8750000000.000000	11.337158	-4.466948	2.341665
8800000000.000000	11.154515	-4.009014	2.356459
8850000000.000000	10.946227	-3.596524	2.372372
8900000000.000000	10.713385	-3.227907	2.389353
8950000000.000000	10.457445	-2.900981	2.407398
9000000000.000000	10.180153	-2.613139	2.426473
9050000000.000000	9.880247	-2.390186	2.445896
9100000000.000000	9.565251	-2.197031	2.466300
9150000000.000000	9.237045	-2.030869	2.487654
9200000000.000000	8.897442	-1.888998	2.509885
9250000000.000000	8.548155	-1.768869	2.533027
9300000000.000000	8.190772	-1.668106	2.557009
9350000000.000000	7.826739	-1.584523	2.581825
9400000000.000000	7.457354	-1.516129	2.607437
9450000000.000000	7.083769	-1.461127	2.633873
9500000000.000000	6.706990	-1.417906	2.661054
9550000000.000000	6.327890	-1.385030	2.689028
9600000000.000000	5.947215	-1.361223	2.717719
9650000000.000000	5.565598	-1.345358	2.747163
9700000000.000000	5.183569	-1.336444	2.777335
9750000000.000000	4.801566	-1.333607	2.808226
9800000000.000000	4.419946	-1.336080	2.839844
9850000000.000000	4.038997	-1.343192	2.872155
9900000000.000000	3.658944	-1.354354	2.905153
9950000000.000000	3.279961	-1.369052	2.938867
10000000000.000000	2.902173	-1.386833	2.973278
10050000000.000000	2.534789	-1.410577	3.007616
10100000000.000000	2.168487	-1.436363	3.042641
10150000000.000000	1.803262	-1.463933	3.078365
10200000000.000000	1.439089	-1.493060	3.114759
10250000000.000000	1.075924	-1.523542	3.151825
10300000000.000000	0.713712	-1.555203	3.189594
10350000000.000000	0.352382	-1.587885	3.228068
10400000000.000000	-0.008145	-1.621452	3.267205
10450000000.000000	-0.367962	-1.655780	3.307053
10500000000.000000	-0.727165	-1.690761	3.347601
10550000000.000000	-1.085861	-1.726298	3.388866
10600000000.000000	-1.444164	-1.762308	3.430824
10650000000.000000	-1.802193	-1.798712	3.473493
10700000000.000000	-2.160073	-1.835445	3.516862
10750000000.000000	-2.517936	-1.872446	3.560967
10800000000.000000	-2.875920	-1.909661	3.605796
10850000000.000000	-3.234167	-1.947043	3.651371
10900000000.000000	-3.592827	-1.984550	3.697665
10950000000.000000	-3.952054	-2.022145	3.744685
11000000000.000000	-4.312011	-2.059793	3.792464
